!Agilent Technologies,E8362C,MY49020356,A.09.42.23
!Agilent E8362C: A.09.42.23
!Date: Wednesday, December 03, 2025 18:06:23
!Correction: S11(Full 2 Port(1,2)) 
!S21(Full 2 Port(1,2)) 
!S12(Full 2 Port(1,2)) 
!S22(Full 2 Port(1,2)) 
!S2P File: Measurements: S11, S21, S12, S22:
# Hz S  dB   R 50
8000000000 -3.4110999 -139.92686 -4.0318012 -46.154976 -4.015871 -46.244438 -3.7371085 -141.61229
8000625000 -3.4115283 -140.60736 -4.0288424 -46.86208 -4.0181718 -46.933456 -3.7319438 -142.27968
8001250000 -3.4084263 -141.28587 -4.0300388 -47.57782 -4.0209522 -47.623207 -3.7393236 -142.9646
8001875000 -3.4048483 -141.94623 -4.030128 -48.260307 -4.0180521 -48.335114 -3.7333839 -143.64064
8002500000 -3.4023774 -142.61258 -4.0276084 -48.927139 -4.0114112 -49.007736 -3.7212088 -144.29625
8003125000 -3.3937488 -143.29636 -4.0216932 -49.645061 -4.0184231 -49.767052 -3.730895 -145.0092
8003750000 -3.3935692 -143.97031 -4.0256596 -50.303658 -4.0203228 -50.455826 -3.7295218 -145.66272
8004375000 -3.3930051 -144.66101 -4.0292749 -51.042221 -4.0145879 -51.142372 -3.7264409 -146.29356
8005000000 -3.3902109 -145.3353 -4.0292153 -51.734413 -4.0140243 -51.861042 -3.7239656 -146.99438
8005625000 -3.3840678 -145.99359 -4.0249224 -52.4011 -4.0195174 -52.529083 -3.7272177 -147.63614
8006250000 -3.386235 -146.63658 -4.0286498 -53.100609 -4.0164685 -53.212292 -3.7183137 -148.3194
8006875000 -3.3842363 -147.33192 -4.0288749 -53.824146 -4.0202546 -53.898041 -3.7207792 -148.96432
8007500000 -3.3897884 -148.01854 -4.0302343 -54.524261 -4.0211339 -54.573566 -3.7173665 -149.61549
8008125000 -3.3897367 -148.70125 -4.0372562 -55.233402 -4.0245543 -55.267315 -3.7206082 -150.27246
8008750000 -3.3831825 -149.33566 -4.0318193 -55.894779 -4.0270424 -55.922974 -3.724699 -150.9109
8009375000 -3.3797681 -150.03677 -4.0335946 -56.642818 -4.0265656 -56.638824 -3.7231941 -151.61407
8010000000 -3.3787346 -150.68018 -4.0308971 -57.309174 -4.0230446 -57.344151 -3.7182627 -152.2865
8010625000 -3.3723338 -151.39195 -4.0277834 -58.008484 -4.0209737 -58.064373 -3.7087429 -152.9696
8011250000 -3.3729541 -152.0392 -4.0321975 -58.674667 -4.0241332 -58.740883 -3.7168453 -153.60072
8011875000 -3.3701541 -152.70816 -4.027123 -59.384178 -4.0258131 -59.427509 -3.7156758 -154.28645
8012500000 -3.3705981 -153.38379 -4.0353584 -60.100647 -4.0299668 -60.094826 -3.7205279 -154.93459
8013125000 -3.368155 -154.06131 -4.0298171 -60.782665 -4.0324178 -60.766506 -3.7185891 -155.55157
8013750000 -3.3611219 -154.77165 -4.031611 -61.498451 -4.0246043 -61.534214 -3.7135026 -156.27441
8014375000 -3.362534 -155.39818 -4.0344329 -62.160656 -4.0295 -62.229198 -3.7152336 -156.95943
8015000000 -3.3670964 -156.07307 -4.0372858 -62.878864 -4.0306196 -62.924744 -3.7159896 -157.63678
8015625000 -3.3661027 -156.78764 -4.0412302 -63.601269 -4.0316706 -63.619621 -3.7123148 -158.28793
8016250000 -3.3616245 -157.47101 -4.0411053 -64.314888 -4.0318155 -64.301208 -3.7175 -158.92529
8016875000 -3.3596852 -158.11243 -4.0395899 -64.971176 -4.0292296 -64.977287 -3.7192817 -159.57805
8017500000 -3.3573053 -158.79315 -4.0361738 -65.676674 -4.030416 -65.679512 -3.7151453 -160.25121
8018125000 -3.3501296 -159.48048 -4.0358677 -66.361084 -4.0284996 -66.37767 -3.7242389 -160.92697
8018750000 -3.3553209 -160.09993 -4.0385532 -67.039261 -4.0343633 -67.058258 -3.7214456 -161.58492
8019375000 -3.3545899 -160.78026 -4.0337963 -67.72023 -4.0385852 -67.70591 -3.7187831 -162.20973
8020000000 -3.3600459 -161.43712 -4.0394235 -68.407982 -4.0396624 -68.348328 -3.7271318 -162.84076
8020625000 -3.3517916 -162.13757 -4.0452018 -69.116722 -4.0428953 -69.069832 -3.7284245 -163.50673
8021250000 -3.3598304 -162.77637 -4.0404902 -69.797485 -4.0426817 -69.780174 -3.7247071 -164.21835
8021875000 -3.3564358 -163.46541 -4.0425735 -70.485146 -4.0457935 -70.444641 -3.7280598 -164.80164
8022500000 -3.3554196 -164.14023 -4.0419145 -71.21283 -4.0426798 -71.143028 -3.7227023 -165.49426
8023125000 -3.3565283 -164.77869 -4.0468731 -71.84922 -4.0433569 -71.826523 -3.7283056 -166.15871
8023750000 -3.3483877 -165.4841 -4.0384955 -72.586098 -4.0415902 -72.53653 -3.7199881 -166.81438
8024375000 -3.3446724 -166.16791 -4.044981 -73.304199 -4.0345922 -73.251694 -3.722631 -167.52411
8025000000 -3.3445444 -166.81708 -4.046299 -73.999352 -4.0406885 -73.953064 -3.7244875 -168.20677
8025625000 -3.3476117 -167.49234 -4.0514035 -74.673714 -4.0360494 -74.702667 -3.7221823 -168.88391
8026250000 -3.3392949 -168.21532 -4.0480199 -75.403061 -4.043869 -75.345299 -3.7294674 -169.50117
8026875000 -3.3369052 -168.81905 -4.0430179 -76.054626 -4.0400591 -76.057693 -3.7253017 -170.19713
8027500000 -3.3385763 -169.50636 -4.0515156 -76.734543 -4.0380812 -76.702499 -3.7257936 -170.82744
8028125000 -3.3412786 -170.23859 -4.0455084 -77.503593 -4.0468235 -77.422768 -3.7216506 -171.49757
8028750000 -3.3475776 -170.90747 -4.0547886 -78.139595 -4.0450778 -78.136459 -3.7258723 -172.13609
8029375000 -3.3418679 -171.50058 -4.0518718 -78.788467 -4.0469441 -78.776611 -3.7302451 -172.77882
8030000000 -3.3412957 -172.23557 -4.0538378 -79.546669 -4.0469484 -79.467834 -3.7317944 -173.45229
8030625000 -3.3407764 -172.91595 -4.0530353 -80.220734 -4.0481915 -80.162621 -3.7262814 -174.10089
8031250000 -3.3375404 -173.57178 -4.0531907 -80.918434 -4.0486965 -80.902344 -3.7269847 -174.7887
8031875000 -3.3385887 -174.16782 -4.0505958 -81.555054 -4.0500903 -81.575508 -3.7236674 -175.44737
8032500000 -3.3325393 -174.91052 -4.0533056 -82.287239 -4.0501337 -82.268997 -3.7305124 -176.10735
8033125000 -3.3328133 -175.58449 -4.0550013 -83.032173 -4.0474906 -82.972916 -3.7269304 -176.80611
8033750000 -3.333549 -176.2549 -4.0553088 -83.684151 -4.0552392 -83.66803 -3.7383363 -177.5018
8034375000 -3.3354969 -176.92604 -4.0603375 -84.35704 -4.0464616 -84.34977 -3.7278681 -178.10579
8035000000 -3.3382692 -177.58519 -4.0603824 -85.070763 -4.053102 -85.05426 -3.7303839 -178.79561
8035625000 -3.3330963 -178.24347 -4.0625544 -85.718559 -4.0495443 -85.730476 -3.7290032 -179.44499
8036250000 -3.3341465 -178.93852 -4.0588799 -86.442207 -4.0527883 -86.444626 -3.7279644 179.85782
8036875000 -3.3298366 -179.58725 -4.0608253 -87.115311 -4.051765 -87.110146 -3.7279809 179.23958
8037500000 -3.3389587 179.75798 -4.0680556 -87.85321 -4.0543103 -87.807259 -3.7279561 178.5287
8038125000 -3.3363039 179.07733 -4.0659156 -88.483665 -4.0680828 -88.516159 -3.7342923 177.8853
8038750000 -3.342535 178.34456 -4.0711265 -89.245247 -4.0624194 -89.212357 -3.7295263 177.24352
8039375000 -3.3412557 177.67456 -4.0686836 -89.919655 -4.0580044 -89.917435 -3.7237484 176.55743
8040000000 -3.3381147 177.01964 -4.0720901 -90.589874 -4.0586758 -90.591225 -3.7245479 175.90385
8040625000 -3.3302159 176.37175 -4.0683947 -91.253151 -4.0602083 -91.269676 -3.7252395 175.21777
8041250000 -3.3283167 175.6918 -4.0658426 -91.993317 -4.0626693 -91.930611 -3.720742 174.60519
8041875000 -3.3355365 175.04089 -4.0709977 -92.632751 -4.068821 -92.690575 -3.7242222 173.89113
8042500000 -3.3356111 174.38068 -4.0722032 -93.3088 -4.0677171 -93.384727 -3.7293649 173.24232
8043125000 -3.3302624 173.6752 -4.0710959 -94.044708 -4.0643415 -94.070595 -3.7236791 172.53342
8043750000 -3.332474 172.98477 -4.0750813 -94.754951 -4.0633807 -94.75843 -3.7194042 171.90759
8044375000 -3.3271549 172.35139 -4.0760517 -95.43898 -4.070219 -95.396736 -3.7297933 171.22371
8045000000 -3.337991 171.70337 -4.0764079 -96.102043 -4.0685458 -96.136093 -3.7195685 170.53368
8045625000 -3.3329859 171.03238 -4.0795383 -96.803902 -4.0772347 -96.811821 -3.7218578 169.88347
8046250000 -3.3378496 170.33221 -4.0801387 -97.46817 -4.071928 -97.518288 -3.7176929 169.22774
8046875000 -3.3383558 169.70844 -4.0880733 -98.146423 -4.0731611 -98.180145 -3.71648 168.55917
8047500000 -3.3361902 169.04657 -4.0841832 -98.852463 -4.0730562 -98.810638 -3.7159517 167.90343
8048125000 -3.3410273 168.34386 -4.0913405 -99.525688 -4.0776439 -99.601219 -3.7198226 167.1877
8048750000 -3.338774 167.73538 -4.0889244 -100.2186 -4.0802894 -100.23097 -3.7149596 166.55746
8049375000 -3.339824 167.04588 -4.0915728 -100.9195 -4.0778999 -100.9297 -3.7174408 165.83769
8050000000 -3.3424037 166.37865 -4.0911832 -101.59959 -4.0920486 -101.61758 -3.7194762 165.18449
8050625000 -3.3394341 165.68874 -4.0968857 -102.27527 -4.0858974 -102.34661 -3.7208872 164.53146
8051250000 -3.3412867 165.06305 -4.1005139 -102.95927 -4.0872173 -102.96618 -3.7200639 163.88986
8051875000 -3.338541 164.39781 -4.0947108 -103.66676 -4.0867653 -103.63725 -3.7216041 163.18608
8052500000 -3.342731 163.7798 -4.0974779 -104.31282 -4.0891986 -104.27639 -3.7227523 162.57764
8053125000 -3.3424242 163.09361 -4.1022291 -104.99592 -4.0934114 -104.9641 -3.7261608 161.89575
8053750000 -3.3450637 162.43927 -4.1029153 -105.66046 -4.0904222 -105.65495 -3.7174737 161.21269
8054375000 -3.3482416 161.74722 -4.1047978 -106.37013 -4.1026883 -106.4165 -3.7247021 160.52159
8055000000 -3.3452938 161.09795 -4.1071439 -107.03458 -4.1068659 -107.01146 -3.7278745 159.90366
8055625000 -3.3444936 160.43637 -4.1058092 -107.75417 -4.1084108 -107.70439 -3.7310247 159.21367
8056250000 -3.3416817 159.79141 -4.1130738 -108.39104 -4.1129794 -108.38013 -3.7394605 158.56052
8056875000 -3.3406379 159.12802 -4.1039071 -109.07176 -4.1139235 -109.04978 -3.732301 157.89333
8057500000 -3.3440807 158.49417 -4.1091228 -109.75885 -4.1100168 -109.73596 -3.7297523 157.2041
8058125000 -3.3490222 157.85039 -4.1134462 -110.37749 -4.1144638 -110.34946 -3.7297916 156.64449
8058750000 -3.3517406 157.18462 -4.1160207 -111.08375 -4.1119504 -111.06194 -3.7245052 155.92715
8059375000 -3.3520317 156.53255 -4.118227 -111.75243 -4.1192918 -111.74593 -3.7283146 155.25526
8060000000 -3.3513124 155.90306 -4.118875 -112.40994 -4.1198277 -112.45225 -3.7331021 154.5641
8060625000 -3.3539119 155.22557 -4.1232409 -113.11601 -4.1283135 -113.08746 -3.7392595 153.91859
8061250000 -3.345526 154.58327 -4.1222391 -113.79515 -4.1175084 -113.77868 -3.7351229 153.2451
8061875000 -3.3578951 153.91924 -4.1272473 -114.50122 -4.1233511 -114.44305 -3.735625 152.56056
8062500000 -3.3476741 153.26624 -4.1186185 -115.16167 -4.1293077 -115.12807 -3.7365835 151.89021
8063125000 -3.356606 152.61125 -4.1270347 -115.81454 -4.1234446 -115.78796 -3.7309823 151.26758
8063750000 -3.3553245 151.97621 -4.1320877 -116.47495 -4.1307955 -116.48777 -3.7390215 150.56668
8064375000 -3.3617227 151.29871 -4.1381001 -117.16096 -4.1298141 -117.18703 -3.7380185 149.88803
8065000000 -3.3585474 150.65526 -4.1323767 -117.85987 -4.1368146 -117.80966 -3.7416966 149.26328
8065625000 -3.3575644 150.02454 -4.1304932 -118.4879 -4.1322842 -118.45974 -3.7348506 148.6129
8066250000 -3.3579242 149.3714 -4.1388998 -119.17432 -4.1331615 -119.19843 -3.7365549 147.9099
8066875000 -3.3509502 148.67206 -4.1320882 -119.90027 -4.1357355 -119.90965 -3.7367446 147.25923
8067500000 -3.3488061 148.00719 -4.1426172 -120.58228 -4.1328454 -120.60551 -3.7278457 146.60883
8068125000 -3.3430967 147.3255 -4.1376438 -121.2729 -4.1304603 -121.31622 -3.7263055 145.93449
8068750000 -3.3428066 146.679 -4.1413507 -121.94502 -4.1404247 -121.99905 -3.7296598 145.27206
8069375000 -3.3477569 146.03926 -4.147615 -122.61137 -4.1317921 -122.6502 -3.7180841 144.6338
8070000000 -3.3445189 145.40359 -4.1467447 -123.27435 -4.1278658 -123.35455 -3.7151585 143.96155
8070625000 -3.3464131 144.67969 -4.1470556 -124.00237 -4.1319103 -124.01723 -3.7163899 143.27542
8071250000 -3.3510704 144.09702 -4.1459994 -124.62267 -4.1372004 -124.67771 -3.7180579 142.62935
8071875000 -3.3469794 143.42206 -4.1440706 -125.30365 -4.1447492 -125.34653 -3.725559 141.95268
8072500000 -3.3502994 142.76378 -4.1497469 -125.986 -4.1413445 -126.00056 -3.7261446 141.32303
8073125000 -3.3495278 142.12941 -4.1510434 -126.68197 -4.1337271 -126.70654 -3.719641 140.58859
8073750000 -3.3571906 141.46591 -4.1542764 -127.32717 -4.1485319 -127.34967 -3.7281234 139.97452
8074375000 -3.3552177 140.8313 -4.1498494 -127.96841 -4.1476808 -128.03358 -3.7224216 139.29532
8075000000 -3.3528719 140.18034 -4.1531901 -128.64946 -4.1512446 -128.70033 -3.7315595 138.63266
8075625000 -3.3510756 139.47156 -4.151505 -129.36722 -4.1457863 -129.35965 -3.7248328 137.98131
8076250000 -3.3549373 138.86552 -4.1572294 -130.009 -4.1527686 -130.00969 -3.7329252 137.3329
8076875000 -3.3576295 138.20151 -4.1626635 -130.67963 -4.1479673 -130.71338 -3.732094 136.63106
8077500000 -3.3597784 137.57013 -4.1583309 -131.33798 -4.1510196 -131.37791 -3.7303593 135.98146
8078125000 -3.3658195 136.87854 -4.1670971 -132.03607 -4.1527271 -132.05811 -3.7321422 135.31386
8078750000 -3.3557992 136.23201 -4.1536469 -132.69109 -4.151732 -132.71303 -3.7309678 134.66534
8079375000 -3.3622315 135.60971 -4.1631732 -133.37376 -4.1547413 -133.39265 -3.7340391 133.9796
8080000000 -3.3679082 134.9554 -4.167551 -134.02957 -4.1567206 -134.0768 -3.7365198 133.30305
8080625000 -3.3646758 134.29797 -4.1598253 -134.6871 -4.1536946 -134.72641 -3.7349117 132.66107
8081250000 -3.3660021 133.67372 -4.1625996 -135.36673 -4.1559801 -135.39299 -3.7372994 131.97617
8081875000 -3.3685057 132.98064 -4.163507 -136.03177 -4.1558247 -136.03964 -3.7392306 131.34706
8082500000 -3.3675537 132.35271 -4.1619821 -136.69847 -4.1567521 -136.73653 -3.7352388 130.63812
8083125000 -3.364702 131.71941 -4.1590633 -137.34689 -4.1557817 -137.40666 -3.739424 129.96249
8083750000 -3.3791778 131.06993 -4.1755342 -138.03191 -4.1572213 -138.04964 -3.7434084 129.34686
8084375000 -3.378288 130.38631 -4.1658163 -138.75076 -4.1610856 -138.7117 -3.7423599 128.69637
8085000000 -3.3748131 129.74915 -4.1653075 -139.41199 -4.1571689 -139.39995 -3.7434051 127.9938
8085625000 -3.374965 129.10626 -4.1656337 -140.09439 -4.1575828 -140.07863 -3.7449391 127.27163
8086250000 -3.3844893 128.49564 -4.1685362 -140.73062 -4.1594629 -140.73045 -3.7478213 126.65317
8086875000 -3.3844755 127.87251 -4.1650262 -141.38368 -4.167778 -141.39612 -3.7558503 125.9485
8087500000 -3.3906128 127.23154 -4.1739044 -142.03001 -4.1640363 -142.03687 -3.75688 125.32161
8088125000 -3.3932254 126.5851 -4.1687822 -142.69087 -4.1674838 -142.71921 -3.7634194 124.64646
8088750000 -3.3901718 125.93246 -4.1621404 -143.38435 -4.1653337 -143.38748 -3.7625308 123.95033
8089375000 -3.4022355 125.3065 -4.1681042 -144.06642 -4.1692395 -143.99734 -3.7702909 123.31173
8090000000 -3.4044161 124.63078 -4.1686454 -144.71329 -4.1641831 -144.68947 -3.7663572 122.63183
8090625000 -3.4008191 124.02969 -4.1685877 -145.37219 -4.1623278 -145.34305 -3.7645454 121.94702
8091250000 -3.4056532 123.37181 -4.1666007 -146.0526 -4.1689992 -146.00594 -3.7738891 121.29587
8091875000 -3.4144027 122.71912 -4.1749635 -146.73735 -4.1670523 -146.70599 -3.7748954 120.58047
8092500000 -3.4138567 122.09679 -4.1761312 -147.37314 -4.1668296 -147.38622 -3.777261 119.90452
8093125000 -3.4194236 121.42437 -4.1756535 -148.0797 -4.1640067 -148.02243 -3.7758512 119.26133
8093750000 -3.4155521 120.80103 -4.1689682 -148.77312 -4.1639667 -148.6769 -3.7752504 118.59204
8094375000 -3.4249601 120.18198 -4.1763196 -149.43553 -4.1704774 -149.35336 -3.7798522 117.88389
8095000000 -3.4246597 119.48202 -4.178268 -150.08093 -4.1658006 -150.04726 -3.7751718 117.26399
8095625000 -3.4257731 118.87382 -4.1809306 -150.72974 -4.1632638 -150.77963 -3.7733808 116.52961
8096250000 -3.431906 118.18115 -4.1810012 -151.40433 -4.1641932 -151.44286 -3.7699294 115.87178
8096875000 -3.4304752 117.51853 -4.1829476 -152.06601 -4.1663985 -152.09267 -3.7827499 115.25223
8097500000 -3.4450221 116.91833 -4.1829758 -152.76999 -4.1695075 -152.7413 -3.7769551 114.4928
8098125000 -3.4476292 116.27434 -4.1829777 -153.38512 -4.1669722 -153.43127 -3.779772 113.82344
8098750000 -3.4409344 115.67017 -4.1741161 -154.05283 -4.1619849 -154.0542 -3.7757254 113.18784
8099375000 -3.4457343 115.02074 -4.1747446 -154.72824 -4.1721015 -154.74242 -3.785744 112.46864
8100000000 -3.4505649 114.34404 -4.1853123 -155.43744 -4.1706886 -155.40466 -3.7876582 111.82166
8100625000 -3.4497793 113.7558 -4.183773 -156.08646 -4.1639023 -156.06036 -3.785352 111.12143
8101250000 -3.4517002 113.10739 -4.1827564 -156.75861 -4.1691422 -156.77127 -3.7924478 110.43297
8101875000 -3.4625742 112.43523 -4.1850481 -157.42067 -4.1674657 -157.45036 -3.79126 109.73446
8102500000 -3.4645371 111.77366 -4.1809564 -158.10382 -4.1708694 -158.09366 -3.7957151 109.096
8103125000 -3.4607315 111.16824 -4.1777425 -158.75537 -4.1621647 -158.72028 -3.7926817 108.41032
8103750000 -3.4705317 110.47195 -4.1861095 -159.42172 -4.1711521 -159.41801 -3.8041198 107.71742
8104375000 -3.4730356 109.88599 -4.1863513 -160.02715 -4.164577 -160.05954 -3.800935 107.03162
8105000000 -3.4717643 109.23566 -4.1826992 -160.67641 -4.1703372 -160.74194 -3.8143916 106.33594
8105625000 -3.4786077 108.56625 -4.1867108 -161.34334 -4.1694183 -161.39301 -3.8109167 105.66642
8106250000 -3.4846992 107.96136 -4.1917224 -161.98691 -4.1709213 -162.08012 -3.8165243 104.95912
8106875000 -3.4855478 107.29031 -4.1875186 -162.6507 -4.173934 -162.75838 -3.8227575 104.28325
8107500000 -3.4837148 106.65585 -4.1835375 -163.3452 -4.1650438 -163.37828 -3.8133857 103.63407
8108125000 -3.4870484 105.99784 -4.1796727 -163.99075 -4.1713529 -164.08163 -3.8201933 102.96352
8108750000 -3.4930978 105.35775 -4.1873007 -164.65727 -4.166328 -164.7457 -3.8207545 102.2644
8109375000 -3.4967887 104.71889 -4.1870761 -165.34497 -4.1708727 -165.42369 -3.8228791 101.54514
8110000000 -3.4933586 104.10525 -4.1897016 -166.01883 -4.1623702 -166.05731 -3.8198037 100.87496
8110625000 -3.4972408 103.51233 -4.1860328 -166.63489 -4.1653137 -166.772 -3.8287163 100.16147
8111250000 -3.498637 102.83682 -4.179462 -167.34242 -4.1682053 -167.46826 -3.8206234 99.454643
8111875000 -3.4985199 102.19373 -4.1876311 -168.01369 -4.1640396 -168.09348 -3.8230054 98.800102
8112500000 -3.5010107 101.52853 -4.1820574 -168.69891 -4.170146 -168.79332 -3.8287473 98.105774
8113125000 -3.4999471 100.89626 -4.1790771 -169.36847 -4.1658754 -169.50429 -3.8254223 97.386917
8113750000 -3.5083663 100.28686 -4.1840014 -170.01009 -4.1691384 -170.13115 -3.8337936 96.680656
8114375000 -3.5093672 99.674515 -4.180232 -170.62997 -4.162488 -170.77293 -3.8310273 96.028694
8115000000 -3.5143397 98.991837 -4.1822672 -171.3222 -4.1670294 -171.45728 -3.8376322 95.321373
8115625000 -3.5133355 98.343513 -4.1847076 -171.98532 -4.1712627 -172.06752 -3.8462665 94.684807
8116250000 -3.5106819 97.733322 -4.1838346 -172.61986 -4.1654191 -172.77316 -3.8467858 93.965767
8116875000 -3.5178769 97.053162 -4.1852698 -173.30011 -4.1638603 -173.42238 -3.8421626 93.282928
8117500000 -3.5155632 96.422417 -4.1815677 -173.95779 -4.1560903 -174.10022 -3.8410487 92.558693
8118125000 -3.5221014 95.787239 -4.1848884 -174.6098 -4.1609082 -174.73666 -3.8463092 91.91687
8118750000 -3.5168099 95.149704 -4.1848335 -175.23705 -4.157311 -175.42905 -3.8461931 91.221748
8119375000 -3.518434 94.508148 -4.1867523 -175.92653 -4.1613989 -176.10896 -3.8575869 90.487061
8120000000 -3.5180392 93.886032 -4.1797013 -176.63152 -4.1582532 -176.7747 -3.8461514 89.781731
8120625000 -3.5187352 93.266678 -4.1827612 -177.28664 -4.1611385 -177.42459 -3.8538325 89.114449
8121250000 -3.5206416 92.620293 -4.1791902 -177.95934 -4.1593814 -178.10718 -3.8592315 88.378609
8121875000 -3.5243378 91.969986 -4.1775408 -178.60165 -4.1640811 -178.74174 -3.868331 87.740456
8122500000 -3.5271387 91.300079 -4.1806579 -179.29668 -4.1633863 -179.40317 -3.8725536 87.031532
8123125000 -3.5349138 90.659286 -4.1807537 -179.94417 -4.1612272 179.92744 -3.8721056 86.331207
8123750000 -3.5287983 90.023102 -4.1787677 179.38576 -4.1602855 179.28621 -3.8766448 85.63652
8124375000 -3.5304203 89.37439 -4.1778774 178.72998 -4.1609559 178.6031 -3.8785801 84.955467
8125000000 -3.5340536 88.733345 -4.1812062 178.07184 -4.1621284 177.93945 -3.8859632 84.233665
