!Agilent Technologies,E8362C,MY49020356,A.09.42.23
!Agilent E8362C: A.09.42.23
!Date: Wednesday, December 03, 2025 18:15:46
!Correction: S11(Full 2 Port(1,2)) 
!S21(Full 2 Port(1,2)) 
!S12(Full 2 Port(1,2)) 
!S22(Full 2 Port(1,2)) 
!S2P File: Measurements: S11, S21, S12, S22:
# Hz S  dB   R 50
8000000000 -14.286239 -28.713194 -2.9981263 139.80551 -2.9856632 139.73862 -13.907385 -29.845274
8000625000 -14.293902 -29.126827 -2.9967985 139.08693 -2.9893126 139.06233 -13.882325 -30.340752
8001250000 -14.260459 -29.601322 -2.9928412 138.35648 -2.9913471 138.34651 -13.866997 -30.842365
8001875000 -14.25945 -30.099583 -2.9956465 137.6429 -2.9870653 137.59679 -13.845899 -31.299896
8002500000 -14.257623 -30.575256 -2.9938557 136.90755 -2.9835181 136.89665 -13.826262 -31.827784
8003125000 -14.236674 -31.029755 -2.9955237 136.19511 -2.9874425 136.1308 -13.80955 -32.324467
8003750000 -14.231607 -31.482862 -2.9935179 135.50691 -2.9868646 135.43227 -13.795311 -32.811138
8004375000 -14.214417 -32.03569 -2.9941547 134.77658 -2.9867318 134.68614 -13.771955 -33.327118
8005000000 -14.20578 -32.521736 -3.0023382 134.05296 -2.9870415 133.95724 -13.758515 -33.864456
8005625000 -14.196556 -32.941582 -2.9949851 133.34518 -2.9836073 133.20073 -13.731736 -34.347534
8006250000 -14.183362 -33.434784 -2.9970353 132.6181 -2.990015 132.5182 -13.723969 -34.860264
8006875000 -14.172541 -33.970421 -2.9969397 131.85919 -2.983263 131.79211 -13.693753 -35.382763
8007500000 -14.166714 -34.431789 -2.9955583 131.14128 -2.9867501 131.08725 -13.669032 -35.803543
8008125000 -14.155292 -34.960583 -3.0004849 130.42039 -2.9967785 130.36682 -13.656408 -36.328503
8008750000 -14.139048 -35.440434 -2.9966497 129.67473 -2.9991667 129.66325 -13.619937 -36.765705
8009375000 -14.13124 -35.948502 -3.006048 128.95003 -2.9942725 128.93471 -13.616307 -37.332634
8010000000 -14.118132 -36.369762 -3.0005157 128.23875 -2.9898491 128.20169 -13.591656 -37.81435
8010625000 -14.108514 -36.883263 -2.9922304 127.51496 -2.990988 127.45949 -13.571265 -38.38752
8011250000 -14.081454 -37.390152 -3.0019917 126.81723 -2.9914713 126.76978 -13.556018 -38.830547
8011875000 -14.070394 -37.788372 -2.9945216 126.07349 -2.9962809 126.02023 -13.539875 -39.38271
8012500000 -14.062324 -38.334507 -3.0042622 125.36275 -2.9967897 125.37131 -13.524539 -39.816475
8013125000 -14.04632 -38.805824 -3.0009973 124.65156 -2.9983947 124.64622 -13.482697 -40.294224
8013750000 -14.035048 -39.321617 -2.9974496 123.9291 -2.9956698 123.85896 -13.472981 -40.90535
8014375000 -14.014083 -39.723747 -2.9937665 123.24462 -2.9987936 123.15718 -13.467044 -41.410545
8015000000 -14.002375 -40.254524 -3.0018005 122.47447 -2.9997544 122.40341 -13.441974 -41.913303
8015625000 -13.988917 -40.805897 -2.9997103 121.75201 -2.9993913 121.71009 -13.418765 -42.413658
8016250000 -13.96494 -41.244911 -3.0005794 121.03961 -2.9996636 121.0265 -13.404866 -42.923016
8016875000 -13.955638 -41.695839 -3.0051265 120.31755 -2.9973249 120.27061 -13.374971 -43.391708
8017500000 -13.942675 -42.202576 -3.0027542 119.58247 -2.9999151 119.54119 -13.357466 -43.931858
8018125000 -13.92862 -42.676098 -3.0058408 118.89983 -3.0035026 118.82326 -13.339143 -44.383465
8018750000 -13.910187 -43.141998 -3.002738 118.16285 -3.0002456 118.16238 -13.312563 -44.864429
8019375000 -13.905463 -43.604332 -3.000227 117.45468 -3.0087364 117.46452 -13.287925 -45.318829
8020000000 -13.891867 -44.071293 -3.0075371 116.7349 -3.0093045 116.72711 -13.260877 -45.798557
8020625000 -13.869898 -44.647476 -3.0074527 115.98586 -3.0066495 116.03503 -13.257207 -46.340424
8021250000 -13.849643 -45.107334 -3.0052783 115.29285 -3.0112495 115.29574 -13.229875 -46.843102
8021875000 -13.828092 -45.584362 -3.0060484 114.60492 -3.0117855 114.57542 -13.200848 -47.299812
8022500000 -13.824033 -46.065666 -3.0063303 113.85216 -3.0129943 113.8559 -13.180508 -47.865036
8023125000 -13.805666 -46.537094 -3.0088718 113.12934 -3.0118957 113.15903 -13.166879 -48.290749
8023750000 -13.781615 -47.029999 -3.0004945 112.41083 -3.0080035 112.44721 -13.1385 -48.894321
8024375000 -13.768807 -47.519299 -3.0106418 111.69636 -3.0099406 111.69921 -13.131097 -49.427299
8025000000 -13.73771 -47.981716 -3.0092959 110.97906 -3.008419 110.98541 -13.117421 -50.030605
8025625000 -13.722932 -48.510334 -3.0168185 110.26959 -3.0109434 110.27504 -13.087428 -50.443687
8026250000 -13.70769 -49.010647 -3.01089 109.51706 -3.0081842 109.6035 -13.06815 -50.982662
8026875000 -13.684465 -49.447487 -3.0086112 108.81913 -3.0124421 108.8346 -13.052164 -51.515038
8027500000 -13.664922 -49.981541 -3.0110323 108.12351 -3.009573 108.15391 -13.038204 -51.997002
8028125000 -13.654868 -50.521606 -3.010407 107.35255 -3.0180371 107.40119 -13.004976 -52.560204
8028750000 -13.63655 -50.967834 -3.0154471 106.65986 -3.0182476 106.64243 -12.994781 -53.028011
8029375000 -13.603314 -51.395912 -3.0124593 106.00079 -3.0139332 105.99886 -12.976378 -53.517464
8030000000 -13.599599 -51.924789 -3.018244 105.24919 -3.0214522 105.25699 -12.956482 -54.010403
8030625000 -13.591327 -52.43026 -3.0147645 104.51772 -3.0173526 104.5342 -12.931145 -54.599247
8031250000 -13.552643 -52.992985 -3.0146213 103.80486 -3.0191822 103.80042 -12.913321 -55.112072
8031875000 -13.536876 -53.376179 -3.0069213 103.10373 -3.0179002 103.14822 -12.883451 -55.664379
8032500000 -13.511458 -53.913338 -3.0113254 102.36051 -3.0223446 102.41769 -12.867132 -56.128754
8033125000 -13.491051 -54.469936 -3.0127425 101.62132 -3.0197864 101.6648 -12.853345 -56.684067
8033750000 -13.477416 -54.891945 -3.0206807 100.90218 -3.0235472 100.96989 -12.846453 -57.172009
8034375000 -13.463938 -55.406498 -3.0191193 100.18979 -3.0189996 100.25567 -12.810358 -57.651142
8035000000 -13.433447 -55.938637 -3.0144689 99.486992 -3.0203063 99.547478 -12.793279 -58.146957
8035625000 -13.416709 -56.404232 -3.0141516 98.770348 -3.0118203 98.788986 -12.773312 -58.732174
8036250000 -13.399062 -56.856983 -3.0154822 98.052696 -3.0191176 98.075912 -12.752539 -59.277565
8036875000 -13.369801 -57.344608 -3.0158212 97.336502 -3.0223436 97.359024 -12.745288 -59.841728
8037500000 -13.342526 -57.867363 -3.0202975 96.59996 -3.0173593 96.676247 -12.724589 -60.378601
8038125000 -13.340746 -58.412025 -3.0206974 95.904091 -3.0256305 95.963799 -12.705881 -60.862019
8038750000 -13.312313 -58.948147 -3.0172522 95.153618 -3.0205159 95.237488 -12.686395 -61.389584
8039375000 -13.294469 -59.400272 -3.0207939 94.457756 -3.0256674 94.517593 -12.666764 -61.939487
8040000000 -13.278226 -59.905022 -3.0224407 93.73259 -3.0200973 93.789925 -12.647639 -62.475578
8040625000 -13.246132 -60.486149 -3.0221357 93.071938 -3.018929 93.084564 -12.637686 -62.94091
8041250000 -13.220716 -61.013752 -3.013099 92.320236 -3.0203748 92.389336 -12.610278 -63.493126
8041875000 -13.207613 -61.453884 -3.02034 91.597305 -3.0226729 91.645996 -12.593701 -64.092308
8042500000 -13.17361 -61.980827 -3.0214641 90.870049 -3.0255177 90.923035 -12.58434 -64.537636
8043125000 -13.154178 -62.50061 -3.0199847 90.158051 -3.0210037 90.196846 -12.562055 -65.167603
8043750000 -13.130589 -62.985634 -3.0202694 89.43335 -3.017529 89.462891 -12.544699 -65.703285
8044375000 -13.112458 -63.518295 -3.0215428 88.734131 -3.0199056 88.79081 -12.533701 -66.212967
8045000000 -13.09655 -63.979393 -3.021455 88.011292 -3.0239642 88.059975 -12.507067 -66.749092
8045625000 -13.066183 -64.600227 -3.0218134 87.269455 -3.0223548 87.330421 -12.49904 -67.288452
8046250000 -13.048969 -65.075638 -3.0240686 86.567169 -3.0240784 86.611259 -12.479114 -67.801445
8046875000 -13.028228 -65.657562 -3.0251482 85.872505 -3.023226 85.914757 -12.460665 -68.310089
8047500000 -13.006562 -66.122917 -3.0222826 85.098396 -3.0288756 85.210411 -12.448608 -68.819916
8048125000 -12.983954 -66.615654 -3.0278475 84.411308 -3.0281003 84.438644 -12.433969 -69.438751
8048750000 -12.947804 -67.135483 -3.0238674 83.738678 -3.021558 83.728592 -12.408447 -69.96965
8049375000 -12.934979 -67.671021 -3.0267289 82.940041 -3.0314026 83.043938 -12.407511 -70.475159
8050000000 -12.920966 -68.236069 -3.026299 82.279282 -3.0335662 82.316948 -12.393661 -70.986794
8050625000 -12.894293 -68.826492 -3.0300808 81.537689 -3.0274227 81.597549 -12.375957 -71.527077
8051250000 -12.872319 -69.255302 -3.0347269 80.861877 -3.0333254 80.909378 -12.36187 -72.038826
8051875000 -12.852424 -69.781471 -3.0321949 80.109123 -3.0284312 80.191788 -12.33687 -72.537933
8052500000 -12.827319 -70.262604 -3.0298688 79.431335 -3.03018 79.501404 -12.320993 -73.023399
8053125000 -12.799453 -70.84581 -3.0332887 78.700829 -3.0322311 78.745674 -12.312806 -73.583069
8053750000 -12.787539 -71.383728 -3.0330958 77.977142 -3.03583 78.041756 -12.301785 -74.099709
8054375000 -12.763806 -71.970985 -3.0336871 77.262993 -3.0425632 77.272575 -12.284343 -74.680832
8055000000 -12.748673 -72.490585 -3.0319426 76.552399 -3.0397625 76.616714 -12.260668 -75.170601
8055625000 -12.721633 -73.005882 -3.032901 75.810623 -3.0432172 75.924164 -12.252014 -75.634148
8056250000 -12.710052 -73.555748 -3.0380893 75.106354 -3.0431077 75.205856 -12.239809 -76.164917
8056875000 -12.690137 -74.030769 -3.0381129 74.416428 -3.0455844 74.475723 -12.218669 -76.719009
8057500000 -12.654806 -74.577103 -3.0349109 73.694946 -3.0419505 73.778671 -12.202141 -77.219017
8058125000 -12.645791 -75.09404 -3.0407305 72.998085 -3.0485678 73.077019 -12.188496 -77.705734
8058750000 -12.61476 -75.682846 -3.0399992 72.256104 -3.0501955 72.316689 -12.17472 -78.296051
8059375000 -12.604062 -76.249474 -3.0445545 71.55661 -3.0496185 71.614929 -12.155497 -78.780296
8060000000 -12.574601 -76.710045 -3.0446911 70.858727 -3.0513725 70.895096 -12.141169 -79.35717
8060625000 -12.552023 -77.307129 -3.0491118 70.139107 -3.0577164 70.194351 -12.129693 -79.845016
8061250000 -12.517458 -77.840355 -3.0460346 69.424446 -3.0482724 69.47657 -12.107275 -80.354721
8061875000 -12.506152 -78.324608 -3.0510404 68.717606 -3.0532691 68.817802 -12.093878 -80.882454
8062500000 -12.490294 -78.928596 -3.0469117 67.971283 -3.0610373 68.064606 -12.081956 -81.436005
8063125000 -12.466805 -79.39286 -3.0492036 67.304832 -3.0560536 67.353508 -12.060221 -81.980507
8063750000 -12.454502 -79.959396 -3.0557144 66.605347 -3.0624955 66.65126 -12.051401 -82.488785
8064375000 -12.43107 -80.513405 -3.0567272 65.859978 -3.062484 65.906883 -12.04064 -83.03862
8065000000 -12.401661 -80.982269 -3.0558467 65.168373 -3.0643339 65.222694 -12.016326 -83.536911
8065625000 -12.384377 -81.579185 -3.0551233 64.448441 -3.0612361 64.531113 -12.003855 -84.024208
8066250000 -12.352427 -82.135666 -3.0533781 63.73035 -3.0598047 63.779297 -11.989808 -84.703079
8066875000 -12.324262 -82.676437 -3.0559425 63.032177 -3.0589564 63.053848 -11.968457 -85.308594
8067500000 -12.303594 -83.275726 -3.0572679 62.309113 -3.0556288 62.322998 -11.961579 -85.970947
8068125000 -12.274481 -83.841782 -3.058224 61.591137 -3.052104 61.552673 -11.944532 -86.627319
8068750000 -12.252192 -84.371742 -3.0594091 60.885174 -3.0553145 60.835308 -11.927699 -87.233109
8069375000 -12.233703 -84.898499 -3.0603034 60.196262 -3.0475223 60.167049 -11.907075 -87.774994
8070000000 -12.205481 -85.471008 -3.0596426 59.464008 -3.0454462 59.415562 -11.890468 -88.388954
8070625000 -12.191426 -85.980576 -3.0640695 58.745281 -3.0503178 58.708282 -11.885414 -88.906303
8071250000 -12.154394 -86.479584 -3.0560036 58.096352 -3.0540822 58.033535 -11.857476 -89.332901
8071875000 -12.150105 -86.996048 -3.0603781 57.347443 -3.0554664 57.314289 -11.845514 -89.909119
8072500000 -12.121696 -87.608757 -3.0678716 56.656258 -3.0602045 56.542656 -11.835731 -90.46479
8073125000 -12.090989 -88.19503 -3.0631471 55.901665 -3.0554006 55.852612 -11.813206 -91.013969
8073750000 -12.089781 -88.692047 -3.0697691 55.228363 -3.0605638 55.164116 -11.792025 -91.536972
8074375000 -12.068957 -89.256538 -3.0631773 54.514473 -3.0675521 54.408245 -11.785787 -92.091515
8075000000 -12.041997 -89.862274 -3.0660191 53.77882 -3.0620983 53.723854 -11.754324 -92.578079
8075625000 -12.025757 -90.412476 -3.067637 53.058609 -3.064173 52.992653 -11.741597 -93.150169
8076250000 -11.998231 -90.928139 -3.0722926 52.366707 -3.0595701 52.353748 -11.726527 -93.613892
8076875000 -11.979644 -91.448479 -3.0777972 51.664867 -3.0632112 51.589554 -11.711313 -94.137375
8077500000 -11.957575 -92.033768 -3.0764005 50.938251 -3.0705831 50.886414 -11.695509 -94.72435
8078125000 -11.933906 -92.596504 -3.0760183 50.199947 -3.0676012 50.157997 -11.678588 -95.245865
8078750000 -11.920128 -93.097466 -3.0763009 49.536098 -3.0685692 49.478928 -11.649295 -95.749565
8079375000 -11.894253 -93.676857 -3.0778425 48.827366 -3.0748274 48.764019 -11.644273 -96.275436
8080000000 -11.88541 -94.251816 -3.0826211 48.070534 -3.0779958 48.047462 -11.625281 -96.805161
8080625000 -11.859666 -94.76059 -3.0799098 47.398502 -3.0748889 47.311344 -11.601477 -97.369781
8081250000 -11.835664 -95.2724 -3.0794306 46.711323 -3.0802572 46.645519 -11.592868 -97.85083
8081875000 -11.820877 -95.851761 -3.0832822 45.986217 -3.0798802 45.886002 -11.569201 -98.409828
8082500000 -11.803098 -96.396072 -3.0875678 45.263416 -3.0733764 45.213615 -11.548628 -98.947792
8083125000 -11.780786 -96.906586 -3.088697 44.572441 -3.0793829 44.521477 -11.529041 -99.39888
8083750000 -11.752298 -97.480225 -3.0938365 43.863213 -3.0792866 43.832123 -11.51313 -99.983322
8084375000 -11.730864 -98.034126 -3.0909462 43.160938 -3.0838726 43.086239 -11.490836 -100.53923
8085000000 -11.702111 -98.677574 -3.0871584 42.400436 -3.0839455 42.38242 -11.480259 -101.0384
8085625000 -11.691425 -99.144043 -3.0957286 41.727341 -3.085103 41.651241 -11.459717 -101.58743
8086250000 -11.669384 -99.689194 -3.0960748 41.045639 -3.0950372 40.951744 -11.447221 -102.07543
8086875000 -11.644824 -100.27299 -3.0928702 40.319805 -3.093219 40.282883 -11.418058 -102.54938
8087500000 -11.624982 -100.81886 -3.1000216 39.603687 -3.0946343 39.587418 -11.400799 -103.01744
8088125000 -11.613229 -101.3746 -3.101757 38.925068 -3.0987637 38.856258 -11.379095 -103.53509
8088750000 -11.587462 -101.90625 -3.1002464 38.193825 -3.0988777 38.181438 -11.356156 -104.02929
8089375000 -11.562911 -102.49415 -3.1031785 37.472298 -3.1031899 37.515522 -11.333205 -104.45632
8090000000 -11.542179 -103.01457 -3.1045535 36.789322 -3.1082437 36.77655 -11.32198 -105.00201
8090625000 -11.521706 -103.55591 -3.1049483 36.056187 -3.1084955 36.097477 -11.304434 -105.55539
8091250000 -11.498176 -104.15901 -3.1107726 35.350906 -3.1084864 35.389996 -11.285012 -106.02858
8091875000 -11.477483 -104.67262 -3.1077709 34.625031 -3.1124539 34.660137 -11.267367 -106.64549
8092500000 -11.452772 -105.22588 -3.1142383 33.958019 -3.1146734 33.924477 -11.255811 -107.14522
8093125000 -11.427092 -105.83306 -3.1109259 33.20314 -3.1097569 33.262516 -11.224997 -107.60293
8093750000 -11.400419 -106.40676 -3.1046238 32.502659 -3.1173623 32.578789 -11.208435 -108.16809
8094375000 -11.38475 -106.88152 -3.1163635 31.829823 -3.1230299 31.823788 -11.204563 -108.81471
8095000000 -11.357223 -107.56075 -3.1169851 31.08593 -3.1180995 31.126345 -11.185351 -109.28989
8095625000 -11.325031 -108.0882 -3.1138682 30.43042 -3.1162446 30.393103 -11.172212 -109.87248
8096250000 -11.304639 -108.74075 -3.1132436 29.671841 -3.1120224 29.676186 -11.152781 -110.44511
8096875000 -11.274837 -109.23922 -3.1155341 28.99416 -3.1158957 28.977303 -11.14009 -110.97055
8097500000 -11.270479 -109.70287 -3.1239972 28.252708 -3.1197925 28.311932 -11.122571 -111.47499
8098125000 -11.242207 -110.28893 -3.1186841 27.588909 -3.1217184 27.569584 -11.102667 -111.91649
8098750000 -11.215561 -110.86402 -3.1167459 26.87656 -3.1241724 26.876524 -11.083369 -112.52521
8099375000 -11.196141 -111.4315 -3.123493 26.146439 -3.1284757 26.174576 -11.068474 -112.97414
8100000000 -11.168591 -112.0845 -3.1244416 25.438278 -3.1275113 25.45327 -11.054714 -113.54925
8100625000 -11.138813 -112.61771 -3.1270108 24.736473 -3.1240954 24.778992 -11.038733 -114.03141
8101250000 -11.111601 -113.24575 -3.1207101 24.008059 -3.1251447 24.025055 -11.016638 -114.57891
8101875000 -11.097487 -113.78156 -3.1278791 23.328205 -3.1307242 23.304974 -11.001776 -115.10805
8102500000 -11.074625 -114.37437 -3.1289265 22.604729 -3.133724 22.643196 -10.983273 -115.58768
8103125000 -11.049239 -114.89916 -3.1303639 21.887566 -3.1321917 21.958048 -10.969289 -116.13196
8103750000 -11.021505 -115.46635 -3.1356053 21.193193 -3.135983 21.241758 -10.964787 -116.57034
8104375000 -11.009134 -115.93867 -3.13853 20.494774 -3.1384494 20.509953 -10.9529 -117.15177
8105000000 -10.987288 -116.41159 -3.1410172 19.83359 -3.1356072 19.818851 -10.933914 -117.61382
8105625000 -10.972908 -117.00229 -3.1487622 19.11475 -3.1447654 19.11488 -10.922441 -118.11747
8106250000 -10.948268 -117.52095 -3.1477027 18.453537 -3.1443481 18.417395 -10.90696 -118.63211
8106875000 -10.926237 -118.12874 -3.1525495 17.730452 -3.1460516 17.701033 -10.888907 -119.11869
8107500000 -10.895692 -118.72244 -3.1458857 17.023966 -3.1440678 17.005236 -10.870284 -119.67844
8108125000 -10.867746 -119.35078 -3.1454256 16.297358 -3.1493325 16.273743 -10.85836 -120.16843
8108750000 -10.847669 -119.96381 -3.1520741 15.572088 -3.15152 15.555922 -10.846961 -120.70257
8109375000 -10.824685 -120.45688 -3.1558485 14.877945 -3.1459184 14.870864 -10.834509 -121.27005
8110000000 -10.789201 -121.06987 -3.1524999 14.168317 -3.1418786 14.157747 -10.814466 -121.86409
8110625000 -10.768696 -121.60271 -3.1560824 13.496668 -3.1477671 13.464001 -10.80235 -122.31953
8111250000 -10.734329 -122.326 -3.144731 12.733556 -3.1467228 12.701417 -10.785001 -122.95766
8111875000 -10.71409 -122.90596 -3.1544836 12.029178 -3.1482127 11.99626 -10.779283 -123.44019
8112500000 -10.692572 -123.47989 -3.1588733 11.332654 -3.1539862 11.317491 -10.765284 -123.90832
8113125000 -10.659138 -124.0879 -3.1550694 10.613437 -3.143718 10.567044 -10.741865 -124.54902
8113750000 -10.648493 -124.62253 -3.1607015 9.9089918 -3.1567469 9.925456 -10.734853 -124.95012
8114375000 -10.620933 -125.17106 -3.1587772 9.243782 -3.1545177 9.1796446 -10.713544 -125.47681
8115000000 -10.595653 -125.82249 -3.1569204 8.4724455 -3.1540434 8.4796896 -10.700681 -125.99294
8115625000 -10.577891 -126.34859 -3.1682467 7.8294911 -3.1586022 7.7994108 -10.689886 -126.45015
8116250000 -10.553916 -126.93191 -3.1705751 7.0991163 -3.1630971 7.0699492 -10.68666 -126.99932
8116875000 -10.530997 -127.51317 -3.1664672 6.4150162 -3.1607854 6.3539681 -10.674971 -127.53832
8117500000 -10.505602 -128.0807 -3.1697102 5.7073917 -3.1603632 5.644465 -10.656479 -128.02109
8118125000 -10.480793 -128.67555 -3.1717124 5.0058098 -3.1636431 4.9563766 -10.643834 -128.54128
8118750000 -10.458174 -129.21608 -3.1764228 4.3196936 -3.1537361 4.215519 -10.630733 -129.10043
8119375000 -10.437503 -129.82544 -3.178915 3.5725508 -3.165159 3.4891984 -10.632463 -129.67178
8120000000 -10.404029 -130.45654 -3.173701 2.8649371 -3.1582797 2.7969694 -10.607656 -130.21408
8120625000 -10.380217 -131.15411 -3.1784778 2.1448138 -3.1619332 2.0877104 -10.596521 -130.68759
8121250000 -10.361691 -131.74275 -3.1814146 1.4418362 -3.1666937 1.393621 -10.583141 -131.13489
8121875000 -10.343986 -132.25768 -3.1838524 0.78044659 -3.1717114 0.72238982 -10.561428 -131.57991
8122500000 -10.320764 -132.91689 -3.1851687 0.017560733 -3.1734498 -0.0088328859 -10.550087 -132.10309
8123125000 -10.305686 -133.46545 -3.1894677 -0.63090819 -3.1736753 -0.67783362 -10.529078 -132.50293
8123750000 -10.28336 -134.05487 -3.1894011 -1.3430625 -3.1789567 -1.3830887 -10.526647 -133.05937
8124375000 -10.258908 -134.6412 -3.1903846 -2.0322733 -3.1763937 -2.0910072 -10.510439 -133.54108
8125000000 -10.237883 -135.26428 -3.1927295 -2.7821395 -3.1796987 -2.8062055 -10.493477 -134.05701
8125625000 -10.224342 -135.8083 -3.1949162 -3.469557 -3.1891189 -3.4846923 -10.486248 -134.5623
