!Agilent Technologies,E8362C,MY49020356,A.09.42.23
!Agilent E8362C: A.09.42.23
!Date: Wednesday, December 03, 2025 18:11:59
!Correction: S11(Full 2 Port(1,2)) 
!S21(Full 2 Port(1,2)) 
!S12(Full 2 Port(1,2)) 
!S22(Full 2 Port(1,2)) 
!S2P File: Measurements: S11, S21, S12, S22:
# Hz S  dB   R 50
8000000000 -4.7177863 67.456146 -5.6880922 -35.882816 -5.6728268 -35.923553 -5.3214707 57.417595
8000625000 -4.7332449 66.804375 -5.6849828 -36.609123 -5.671968 -36.612949 -5.3210788 56.717285
8001250000 -4.7414584 66.144089 -5.6811523 -37.321484 -5.6710157 -37.314209 -5.3286419 56.056618
8001875000 -4.7502389 65.523468 -5.678802 -37.984741 -5.6637487 -38.021252 -5.3272591 55.385223
8002500000 -4.7667089 64.875443 -5.6780806 -38.712231 -5.6596065 -38.731934 -5.3274784 54.685421
8003125000 -4.772871 64.199219 -5.6748195 -39.411591 -5.6586976 -39.425053 -5.3350377 54.031918
8003750000 -4.7765155 63.619984 -5.6636906 -40.063183 -5.6498194 -40.127472 -5.3296804 53.357033
8004375000 -4.794054 62.93259 -5.6681361 -40.763763 -5.6486392 -40.812675 -5.3385377 52.695171
8005000000 -4.7968431 62.315033 -5.6593547 -41.460403 -5.6446915 -41.537289 -5.341784 51.981052
8005625000 -4.8063893 61.697777 -5.6536112 -42.123016 -5.6415205 -42.240021 -5.3444686 51.313202
8006250000 -4.8229256 61.089821 -5.6524701 -42.783588 -5.6405334 -42.903412 -5.3491836 50.66153
8006875000 -4.836472 60.420559 -5.6513658 -43.530312 -5.6308517 -43.589912 -5.3435798 49.985191
8007500000 -4.8497605 59.74622 -5.6454358 -44.268978 -5.6303034 -44.263367 -5.3379736 49.314594
8008125000 -4.8607416 59.103104 -5.6438155 -44.953499 -5.627996 -44.987957 -5.3508019 48.635086
8008750000 -4.8683891 58.445286 -5.6370268 -45.669926 -5.636066 -45.659557 -5.353168 47.931961
8009375000 -4.8770819 57.813557 -5.6371088 -46.348167 -5.617836 -46.354523 -5.3528175 47.273037
8010000000 -4.8897123 57.210835 -5.6349049 -47.02821 -5.6121736 -47.045979 -5.3467116 46.627125
8010625000 -4.8979502 56.561546 -5.621614 -47.734512 -5.6129422 -47.735832 -5.3571525 45.957813
8011250000 -4.9082336 55.897556 -5.6244965 -48.385029 -5.6104217 -48.44046 -5.3653107 45.302376
8011875000 -4.9176455 55.274246 -5.618731 -49.139126 -5.6072788 -49.127968 -5.3601036 44.596386
8012500000 -4.9305801 54.610546 -5.6178136 -49.817978 -5.6028991 -49.788612 -5.369566 43.990002
8013125000 -4.9377708 53.984848 -5.6058159 -50.505333 -5.6056304 -50.486675 -5.3702822 43.287422
8013750000 -4.9466319 53.365814 -5.6026182 -51.15897 -5.5928941 -51.228401 -5.3673887 42.603527
8014375000 -4.9568696 52.758484 -5.6074209 -51.846752 -5.5961795 -51.938721 -5.3800983 41.897854
8015000000 -4.9690876 52.090176 -5.6013622 -52.56974 -5.5915275 -52.626759 -5.3806753 41.210625
8015625000 -4.980629 51.430958 -5.5939603 -53.286835 -5.5925007 -53.335247 -5.3845882 40.569439
8016250000 -4.9925432 50.839565 -5.5970869 -53.935425 -5.5814886 -54.007786 -5.3873663 39.885548
8016875000 -4.9998546 50.181709 -5.5955834 -54.653996 -5.577651 -54.731407 -5.3901215 39.198502
8017500000 -5.013341 49.512657 -5.5893335 -55.378292 -5.5751944 -55.412056 -5.3925805 38.583126
8018125000 -5.0101242 48.892258 -5.5802989 -56.032341 -5.5691981 -56.122826 -5.3947811 37.887577
8018750000 -5.0241413 48.278183 -5.5743389 -56.740032 -5.562376 -56.752583 -5.3924813 37.231857
8019375000 -5.0387464 47.666546 -5.5676684 -57.402229 -5.5675697 -57.44175 -5.3953505 36.570339
8020000000 -5.0499225 47.03727 -5.5715308 -58.102425 -5.5653205 -58.119884 -5.3982186 35.878647
8020625000 -5.063405 46.353966 -5.5726132 -58.825211 -5.5611367 -58.842278 -5.4134393 35.210621
8021250000 -5.0715704 45.728355 -5.5621076 -59.503777 -5.5575614 -59.548473 -5.4078636 34.553864
8021875000 -5.0777469 45.083206 -5.5572896 -60.173737 -5.5529175 -60.236435 -5.4130054 33.878632
8022500000 -5.0913663 44.483032 -5.55374 -60.887047 -5.54842 -60.927406 -5.4169869 33.186085
8023125000 -5.0963683 43.785538 -5.5508823 -61.619324 -5.5422268 -61.603806 -5.4173174 32.572186
8023750000 -5.1069217 43.221584 -5.5425501 -62.253597 -5.5449491 -62.281292 -5.4263124 31.890301
8024375000 -5.1139579 42.568752 -5.5461087 -62.990704 -5.536417 -63.030121 -5.4296002 31.167505
8025000000 -5.1229801 41.922546 -5.5451961 -63.685879 -5.5298529 -63.674549 -5.4395661 30.563143
8025625000 -5.135335 41.260181 -5.5421348 -64.358284 -5.5339713 -64.399734 -5.4447045 29.879608
8026250000 -5.1349926 40.637154 -5.5307393 -65.061485 -5.5344753 -65.070885 -5.4597068 29.215635
8026875000 -5.1468863 40.028027 -5.5316343 -65.757614 -5.5255852 -65.79583 -5.4554787 28.517794
8027500000 -5.1531343 39.359211 -5.5279794 -66.453239 -5.519063 -66.460434 -5.4658914 27.927084
8028125000 -5.170527 38.727367 -5.5195642 -67.154961 -5.5209956 -67.15094 -5.4631753 27.234144
8028750000 -5.1762214 38.066265 -5.5205255 -67.823578 -5.5156441 -67.909843 -5.4695463 26.56024
8029375000 -5.1820292 37.456604 -5.5154347 -68.47007 -5.5109768 -68.507507 -5.4746084 25.959457
8030000000 -5.1921911 36.835339 -5.5117664 -69.195778 -5.5094495 -69.205055 -5.4822378 25.28314
8030625000 -5.2030244 36.194412 -5.506639 -69.911728 -5.5005469 -69.953316 -5.4825821 24.555084
8031250000 -5.2120061 35.505535 -5.5046129 -70.613548 -5.4990644 -70.601845 -5.4911232 23.954195
8031875000 -5.2148199 34.943737 -5.4928098 -71.279396 -5.4974532 -71.32225 -5.4955897 23.216431
8032500000 -5.2242584 34.282368 -5.492497 -71.968369 -5.4903069 -72.007996 -5.5036983 22.57465
8033125000 -5.2354708 33.619549 -5.4945793 -72.679977 -5.4897642 -72.669701 -5.5163536 21.941696
8033750000 -5.2374935 33.002384 -5.4889493 -73.398552 -5.4869618 -73.390648 -5.5221014 21.276171
8034375000 -5.2509551 32.347267 -5.4867535 -74.073517 -5.4783483 -74.062881 -5.5199428 20.644922
8035000000 -5.2586589 31.695534 -5.4810047 -74.754631 -5.4773355 -74.751175 -5.5295644 20.000315
8035625000 -5.2596946 31.047886 -5.4744325 -75.480453 -5.4643707 -75.46801 -5.5309029 19.322893
8036250000 -5.2671051 30.467255 -5.4701071 -76.150223 -5.4671268 -76.16124 -5.5385876 18.617996
8036875000 -5.2714682 29.821548 -5.46734 -76.826279 -5.4648619 -76.875542 -5.554872 17.958693
8037500000 -5.2819562 29.138506 -5.4654655 -77.567078 -5.4660754 -77.539078 -5.5667205 17.298395
8038125000 -5.2946963 28.555447 -5.459619 -78.237503 -5.4579787 -78.219856 -5.566906 16.683659
8038750000 -5.3013983 27.823315 -5.453115 -78.944862 -5.4522514 -78.940498 -5.5745773 16.050493
8039375000 -5.3088903 27.192358 -5.4520373 -79.657784 -5.4510403 -79.652626 -5.5804181 15.349262
8040000000 -5.3107228 26.587994 -5.4457402 -80.325966 -5.4493346 -80.343079 -5.5934477 14.682691
8040625000 -5.3169703 25.935175 -5.4417391 -80.987251 -5.4354978 -81.031425 -5.5911455 14.103944
8041250000 -5.3290882 25.265799 -5.4355612 -81.730087 -5.4386296 -81.685234 -5.6041083 13.43193
8041875000 -5.3365431 24.632427 -5.4361572 -82.434547 -5.436337 -82.451057 -5.615519 12.705557
8042500000 -5.3368931 23.933611 -5.43014 -83.1091 -5.4294853 -83.097588 -5.621738 12.133024
8043125000 -5.3454227 23.329533 -5.4281936 -83.811691 -5.4240842 -83.826378 -5.6326723 11.426352
8043750000 -5.3519497 22.687168 -5.4196067 -84.496735 -5.4157567 -84.517708 -5.6379914 10.786809
8044375000 -5.3530741 22.060715 -5.4123597 -85.218773 -5.4165301 -85.150002 -5.6535673 10.186403
8045000000 -5.3622565 21.385015 -5.4093008 -85.93531 -5.4098086 -85.903542 -5.6531634 9.4778194
8045625000 -5.3749666 20.746601 -5.4078627 -86.594475 -5.4119334 -86.56588 -5.6712275 8.8777227
8046250000 -5.3797617 20.099064 -5.398746 -87.263298 -5.4023585 -87.261429 -5.671876 8.2443256
8046875000 -5.3924718 19.4324 -5.4003539 -88.006027 -5.3939595 -87.928619 -5.6780615 7.594233
8047500000 -5.3909955 18.841652 -5.392096 -88.661469 -5.3979735 -88.602493 -5.6924725 6.9724903
8048125000 -5.3980737 18.14555 -5.3903284 -89.39167 -5.3897715 -89.362907 -5.7046037 6.2785926
8048750000 -5.4122543 17.508919 -5.3841043 -90.073067 -5.3941159 -90.027802 -5.7158756 5.6255064
8049375000 -5.4044929 16.817228 -5.37604 -90.836266 -5.380774 -90.743652 -5.720561 4.9820547
8050000000 -5.4317756 16.188637 -5.381495 -91.475319 -5.3845687 -91.419907 -5.7341905 4.385839
8050625000 -5.4280834 15.512396 -5.3741784 -92.179985 -5.3768444 -92.150551 -5.7452254 3.7089124
8051250000 -5.4430408 14.897094 -5.3749361 -92.863029 -5.3708344 -92.812599 -5.7540426 3.0848064
8051875000 -5.4438543 14.273912 -5.3654575 -93.61409 -5.3657522 -93.489311 -5.7520323 2.421756
8052500000 -5.4481626 13.589639 -5.3610692 -94.287857 -5.3574119 -94.18457 -5.7594829 1.7992707
8053125000 -5.4567337 12.936296 -5.3550873 -94.968552 -5.3565693 -94.900993 -5.7743058 1.1742134
8053750000 -5.464849 12.249378 -5.3526616 -95.711418 -5.354187 -95.603767 -5.7835307 0.52550137
8054375000 -5.4826841 11.605699 -5.3522182 -96.393471 -5.3528371 -96.340698 -5.794939 -0.14426963
8055000000 -5.4892263 10.990533 -5.346417 -97.081779 -5.3500748 -96.98732 -5.8031254 -0.75908071
8055625000 -5.4877682 10.359619 -5.3352561 -97.772217 -5.3427377 -97.694679 -5.808743 -1.4073164
8056250000 -5.501483 9.7222509 -5.3417096 -98.485382 -5.339222 -98.368942 -5.8263545 -2.0386751
8056875000 -5.5049958 9.0908337 -5.3285398 -99.160614 -5.3389425 -99.06678 -5.8330717 -2.6629131
8057500000 -5.5094347 8.4101181 -5.3242192 -99.88076 -5.331265 -99.782463 -5.8398457 -3.3362222
8058125000 -5.5175276 7.753129 -5.3172255 -100.55307 -5.3307586 -100.4793 -5.847497 -3.9473298
8058750000 -5.5217428 7.0579357 -5.3170333 -101.3127 -5.3235369 -101.17545 -5.8575587 -4.5974417
8059375000 -5.541976 6.4463563 -5.3147054 -101.94118 -5.3209419 -101.88362 -5.8635659 -5.2086339
8060000000 -5.5410995 5.8146935 -5.3093934 -102.65481 -5.3185239 -102.5967 -5.8784404 -5.9077988
8060625000 -5.5549064 5.1488571 -5.3132715 -103.34056 -5.3135171 -103.26382 -5.8869405 -6.5099583
8061250000 -5.5512156 4.4849744 -5.3053985 -104.0655 -5.3049579 -103.94475 -5.9006009 -7.1450963
8061875000 -5.5617943 3.8558309 -5.302103 -104.76482 -5.3065915 -104.66196 -5.9123049 -7.8068891
8062500000 -5.5687485 3.2035444 -5.2916398 -105.47533 -5.3026934 -105.36062 -5.9197965 -8.451148
8063125000 -5.5768809 2.583323 -5.2903876 -106.12961 -5.288475 -106.04792 -5.9214931 -9.0868244
8063750000 -5.5885386 1.9387972 -5.2904181 -106.83802 -5.2922978 -106.76523 -5.9402885 -9.7197475
8064375000 -5.5967298 1.2671466 -5.2875667 -107.54223 -5.2887788 -107.48363 -5.9495788 -10.370082
8065000000 -5.5965853 0.60763365 -5.2763438 -108.26076 -5.2838788 -108.13737 -5.9593825 -10.992566
8065625000 -5.6096411 -0.049674511 -5.2765703 -108.95547 -5.2757092 -108.83887 -5.9623098 -11.59837
8066250000 -5.6113892 -0.66734594 -5.2698941 -109.63922 -5.2722259 -109.58283 -5.9832106 -12.320689
8066875000 -5.6097484 -1.3165358 -5.2631683 -110.31908 -5.2675571 -110.28445 -5.9982562 -12.979113
8067500000 -5.6232281 -1.9350791 -5.2646465 -110.98544 -5.2594876 -110.98509 -6.0190277 -13.624822
8068125000 -5.631134 -2.6724145 -5.264008 -111.7429 -5.2522397 -111.68291 -6.0335217 -14.263671
8068750000 -5.6312976 -3.2807405 -5.2531385 -112.39446 -5.2498655 -112.42009 -6.0486116 -14.949492
8069375000 -5.6399431 -3.930377 -5.2544465 -113.11359 -5.2369981 -113.10996 -6.054316 -15.592782
8070000000 -5.6464534 -4.5647197 -5.2522473 -113.79081 -5.2308941 -113.81548 -6.0719047 -16.267414
8070625000 -5.6507664 -5.2002182 -5.2425232 -114.49268 -5.2331676 -114.53216 -6.0854282 -16.897829
8071250000 -5.6638479 -5.8618855 -5.2419667 -115.15247 -5.2234492 -115.20442 -6.0826797 -17.510984
8071875000 -5.6674991 -6.4598289 -5.2328219 -115.8896 -5.2235188 -115.90103 -6.0983138 -18.168896
8072500000 -5.6722341 -7.1434455 -5.2335982 -116.58051 -5.2169242 -116.61126 -6.1079416 -18.802177
8073125000 -5.6807485 -7.8021107 -5.2297549 -117.3019 -5.2133346 -117.30904 -6.1157784 -19.45499
8073750000 -5.6988559 -8.4030619 -5.2288194 -117.99887 -5.2166376 -118.01074 -6.13201 -20.107183
8074375000 -5.7042074 -9.0432968 -5.2154675 -118.67226 -5.2117348 -118.70927 -6.1393352 -20.728233
8075000000 -5.7166233 -9.7274685 -5.2172742 -119.39123 -5.2073679 -119.47162 -6.150259 -21.443541
8075625000 -5.7179503 -10.376587 -5.209188 -120.10133 -5.2009101 -120.15276 -6.1588297 -22.051405
8076250000 -5.7283087 -11.028365 -5.2109175 -120.79795 -5.1971765 -120.82175 -6.1724434 -22.655901
8076875000 -5.7334385 -11.66309 -5.2106051 -121.5009 -5.1916604 -121.52745 -6.1797986 -23.313002
8077500000 -5.7433958 -12.317103 -5.2027192 -122.19333 -5.1926212 -122.26482 -6.1913686 -23.977654
8078125000 -5.7513423 -12.970178 -5.1988978 -122.89352 -5.1873388 -122.98672 -6.2027855 -24.648474
8078750000 -5.7574487 -13.56068 -5.1909466 -123.56259 -5.1820984 -123.66772 -6.2075934 -25.290417
8079375000 -5.7696614 -14.236561 -5.1924319 -124.26618 -5.1793189 -124.34215 -6.2191806 -25.926289
8080000000 -5.7795529 -14.892173 -5.1915269 -125.01734 -5.1781006 -125.08047 -6.2306738 -26.588793
8080625000 -5.7834244 -15.501625 -5.182651 -125.6925 -5.1709633 -125.75403 -6.23632 -27.230192
8081250000 -5.7868271 -16.110586 -5.1771989 -126.36269 -5.1686435 -126.46239 -6.2483573 -27.881199
8081875000 -5.7958913 -16.77146 -5.174099 -127.07011 -5.1639462 -127.14442 -6.2598896 -28.498718
8082500000 -5.8067522 -17.405838 -5.1724668 -127.79095 -5.1577692 -127.85401 -6.2669759 -29.155874
8083125000 -5.8153958 -18.051151 -5.1696534 -128.47853 -5.1511979 -128.60796 -6.272007 -29.834095
8083750000 -5.8225541 -18.727631 -5.1662984 -129.17548 -5.1499586 -129.26369 -6.2903419 -30.447325
8084375000 -5.8308334 -19.387093 -5.1594744 -129.89456 -5.1535606 -129.93935 -6.2985582 -31.074041
8085000000 -5.8376865 -20.043451 -5.1587949 -130.60062 -5.1442018 -130.64751 -6.3062 -31.714409
8085625000 -5.8494539 -20.66787 -5.1587753 -131.30719 -5.1471744 -131.35942 -6.3200068 -32.386814
8086250000 -5.8533993 -21.308558 -5.1528139 -131.9863 -5.1459312 -132.0361 -6.3309989 -33.00214
8086875000 -5.8681817 -21.941587 -5.1464033 -132.68446 -5.1430988 -132.75851 -6.3348913 -33.681591
8087500000 -5.8736739 -22.590899 -5.1468921 -133.38434 -5.1353011 -133.44057 -6.3410306 -34.318035
8088125000 -5.8884268 -23.229343 -5.14571 -134.06053 -5.1362758 -134.14346 -6.345706 -34.928272
8088750000 -5.8956966 -23.851009 -5.1429582 -134.79839 -5.1318436 -134.81537 -6.3507061 -35.582275
8089375000 -5.9065232 -24.545692 -5.1364884 -135.51962 -5.1335316 -135.4899 -6.3596067 -36.229656
8090000000 -5.9125776 -25.166201 -5.1337833 -136.18472 -5.1287131 -136.23068 -6.3679514 -36.860844
8090625000 -5.9204421 -25.745636 -5.1356902 -136.87469 -5.1241651 -136.94403 -6.3893523 -37.567825
8091250000 -5.9254646 -26.467699 -5.1293931 -137.59364 -5.123374 -137.61336 -6.3934398 -38.160145
8091875000 -5.9297724 -27.066769 -5.1235399 -138.30379 -5.1248789 -138.30949 -6.4095483 -38.853485
8092500000 -5.9444323 -27.731449 -5.1330481 -138.98691 -5.1210065 -139.01851 -6.424345 -39.460869
8093125000 -5.9500351 -28.40156 -5.1239004 -139.72148 -5.1131554 -139.70366 -6.4250541 -40.102272
8093750000 -5.9604273 -29.016006 -5.1196613 -140.38881 -5.1160378 -140.35727 -6.4368353 -40.735588
8094375000 -5.9618697 -29.637428 -5.1136622 -141.08153 -5.1126137 -141.10857 -6.4554334 -41.424286
8095000000 -5.9697723 -30.342478 -5.1078153 -141.75186 -5.1030645 -141.78468 -6.4648008 -41.98737
8095625000 -5.9750285 -31.008123 -5.1071649 -142.4803 -5.0922217 -142.54155 -6.4770112 -42.700268
8096250000 -5.9806757 -31.687576 -5.1012549 -143.18857 -5.0931554 -143.25366 -6.493216 -43.328342
8096875000 -5.9794331 -32.280579 -5.0991383 -143.85506 -5.0897312 -143.90262 -6.5114303 -43.941277
8097500000 -5.9957957 -32.871834 -5.0978708 -144.58766 -5.0884352 -144.59882 -6.5154276 -44.61488
8098125000 -5.9995766 -33.580391 -5.0928664 -145.26883 -5.088419 -145.31741 -6.5201473 -45.225868
8098750000 -6.0072932 -34.167488 -5.085804 -145.93945 -5.0831947 -146.00227 -6.5349331 -45.861931
8099375000 -6.0123177 -34.886826 -5.0799947 -146.67751 -5.0887494 -146.71881 -6.5510044 -46.517563
8100000000 -6.023181 -35.562531 -5.0836158 -147.39122 -5.0754604 -147.41934 -6.5626106 -47.172405
8100625000 -6.0268683 -36.193977 -5.0788026 -148.07887 -5.0750899 -148.06702 -6.5749912 -47.766525
8101250000 -6.0349193 -36.87096 -5.0732465 -148.77138 -5.0699158 -148.78896 -6.5838714 -48.417698
8101875000 -6.0457687 -37.517632 -5.0735841 -149.47104 -5.0662322 -149.52513 -6.5924811 -49.052799
8102500000 -6.0514731 -38.185379 -5.0678992 -150.16385 -5.0657802 -150.18137 -6.6015682 -49.660061
8103125000 -6.0519576 -38.798637 -5.0638537 -150.87558 -5.0620046 -150.85524 -6.6187425 -50.289444
8103750000 -6.0536728 -39.482632 -5.0661101 -151.57257 -5.0580287 -151.60289 -6.6305723 -50.914867
8104375000 -6.0607462 -40.066212 -5.0642428 -152.25322 -5.0584407 -152.27785 -6.6489682 -51.559872
8105000000 -6.0619812 -40.675655 -5.0615602 -152.93236 -5.0526319 -152.95567 -6.6573453 -52.164173
8105625000 -6.0704517 -41.338207 -5.0577416 -153.63853 -5.0528536 -153.67557 -6.6697006 -52.794025
8106250000 -6.0783267 -41.988796 -5.0586681 -154.35739 -5.0470424 -154.37325 -6.6825919 -53.431751
8106875000 -6.0861955 -42.64201 -5.0593605 -155.03482 -5.0500302 -155.0849 -6.6989222 -54.04369
8107500000 -6.0890179 -43.285946 -5.0477781 -155.71823 -5.0343571 -155.73515 -6.6995425 -54.686195
8108125000 -6.0907359 -44.005569 -5.0363822 -156.42068 -5.0416684 -156.46449 -6.7190676 -55.27816
8108750000 -6.1024823 -44.691826 -5.0427256 -157.14499 -5.0371256 -157.20062 -6.7368002 -55.940903
8109375000 -6.1088433 -45.294449 -5.0426078 -157.82236 -5.0342026 -157.88376 -6.7522626 -56.566059
8110000000 -6.100862 -45.948128 -5.0291657 -158.54628 -5.0202723 -158.55408 -6.7643008 -57.219353
8110625000 -6.1141858 -46.609879 -5.0326276 -159.18764 -5.0229325 -159.25533 -6.7811632 -57.818165
8111250000 -6.1190615 -47.32608 -5.0186772 -159.92139 -5.0137949 -159.96255 -6.7873783 -58.460491
8111875000 -6.1240511 -47.989197 -5.0192528 -160.62929 -5.0127797 -160.68684 -6.8058338 -59.071972
8112500000 -6.1317101 -48.692257 -5.0157318 -161.34413 -5.0122643 -161.37508 -6.8198967 -59.68705
8113125000 -6.1271996 -49.348713 -5.0039468 -162.02483 -4.9992523 -162.06839 -6.8268762 -60.332169
8113750000 -6.1469564 -49.979492 -5.0113482 -162.74142 -5.003243 -162.75592 -6.8414197 -60.936272
8114375000 -6.1476493 -50.608109 -5.0026269 -163.41364 -5.0008202 -163.47218 -6.8545613 -61.573185
8115000000 -6.1522985 -51.287663 -4.99682 -164.11653 -4.9947619 -164.1384 -6.8633714 -62.178928
8115625000 -6.1635075 -51.953865 -5.0018454 -164.85486 -4.9952683 -164.85243 -6.8807802 -62.784084
8116250000 -6.1602488 -52.594975 -4.9956856 -165.52049 -4.9895468 -165.55307 -6.8988233 -63.410748
8116875000 -6.1758256 -53.28746 -4.9971399 -166.24446 -4.9799676 -166.28262 -6.9079809 -64.000435
8117500000 -6.1761441 -53.904514 -4.9896898 -166.89485 -4.9767838 -166.98203 -6.9148374 -64.6315
8118125000 -6.1805115 -54.581711 -4.9859185 -167.60242 -4.9749069 -167.64955 -6.9359331 -65.231499
8118750000 -6.1829362 -55.264702 -4.9836326 -168.31238 -4.9642105 -168.38922 -6.9527249 -65.853569
8119375000 -6.1850147 -55.934914 -4.9819074 -169.04692 -4.9683695 -169.08119 -6.9770312 -66.474884
8120000000 -6.1904345 -56.61274 -4.9708295 -169.7428 -4.9553671 -169.78214 -6.9808536 -67.123611
8120625000 -6.2006931 -57.330791 -4.9668326 -170.43317 -4.9511914 -170.49187 -6.9914117 -67.729034
8121250000 -6.2093315 -57.998867 -4.9658041 -171.1413 -4.9519024 -171.17006 -7.0000882 -68.323837
8121875000 -6.2217741 -58.64542 -4.9637527 -171.82677 -4.9526286 -171.88225 -7.0069523 -68.932198
8122500000 -6.2293067 -59.320911 -4.9612722 -172.56352 -4.9531164 -172.5612 -7.0240211 -69.513367
8123125000 -6.2413564 -59.988297 -4.9602757 -173.22382 -4.9441328 -173.25349 -7.021287 -70.106842
8123750000 -6.2457933 -60.625286 -4.958117 -173.9429 -4.9483871 -173.93933 -7.0499401 -70.693787
8124375000 -6.250742 -61.308788 -4.953752 -174.61694 -4.9390659 -174.66705 -7.0529709 -71.300636
